T2524 000:011.350   SEGGER J-Link V7.00 Log File
T2524 000:011.498   DLL Compiled: Apr  8 2021 14:30:05
T2524 000:011.505   Logging started @ 2021-05-14 00:13
T2524 000:011.511 - 11.515ms
T2524 000:011.525 JLINK_SetWarnOutHandler(...)
T2524 000:011.533 - 0.011ms
T2524 000:011.542 JLINK_OpenEx(...)
T2524 000:013.483   Firmware: J-Link EDU Mini V1 compiled Feb 18 2021 11:25:23
T2524 000:014.039   Firmware: J-Link EDU Mini V1 compiled Feb 18 2021 11:25:23
T2524 000:014.270   Decompressing FW timestamp took 165 us
T2524 000:029.556   Hardware: V1.00
T2524 000:029.632   S/N: 801015672
T2524 000:029.656   OEM: SEGGER
T2524 000:029.678   Feature(s): FlashBP, GDB
T2524 000:031.233   Looking for J-Link GUI Server exe at: C:\Keil_v5\ARM\Segger\JLinkGUIServer.exe
T2524 000:031.350   Looking for J-Link GUI Server exe at: C:\Program Files (x86)\SEGGER\JLink\JLinkGUIServer.exe
T2524 000:031.394   Forking J-Link GUI Server: C:\Program Files (x86)\SEGGER\JLink\JLinkGUIServer.exe
T2524 000:034.240   J-Link GUI Server info: "J-Link GUI server V7.00 "
T2524 002:726.959   TELNET listener socket opened on port 19021
T2524 002:727.741   WEBSRV Starting webserver
T2524 002:728.211   WEBSRV Webserver running on local port 19080
T2524 002:728.264 - 2716.741ms returns "O.K."
T2524 002:728.363 JLINK_GetEmuCaps()
T2524 002:728.401 - 0.065ms returns 0xB8EA5A33
T2524 002:728.488 JLINK_TIF_GetAvailable(...)
T2524 002:728.851 - 0.412ms
T2524 002:728.981 JLINK_SetErrorOutHandler(...)
T2524 002:729.046 - 0.085ms
T2524 002:729.171 JLINK_ExecCommand("ProjectFile = "C:\Users\Matthew\Documents\RMIT\2021\Embedded System Design\Project\GitHub\JLinkSettings.ini"", ...). 
T2524 002:767.410   Ref file found at: C:\Keil_v5\ARM\Segger\JLinkDevices.ref
T2524 002:767.649   XML referenced by ref file: C:\Program Files (x86)\SEGGER\JLink\JLinkDevices.xml
T2524 002:769.525   C:\Program Files (x86)\SEGGER\JLink\JLinkDevices.xml evaluated successfully.
T2524 002:809.801 - 80.641ms returns 0x00
T2524 002:809.888 JLINK_ExecCommand("Device = STM32F439IITx", ...). 
T2524 002:811.119   Device "STM32F439II" selected.
T2524 002:811.998 - 2.096ms returns 0x00
T2524 002:812.042 JLINK_GetHardwareVersion()
T2524 002:812.051 - 0.012ms returns 10000
T2524 002:812.074 JLINK_GetDLLVersion()
T2524 002:812.081 - 0.010ms returns 70000
T2524 002:812.090 JLINK_GetOEMString(...)
T2524 002:812.100 JLINK_GetFirmwareString(...)
T2524 002:812.107 - 0.011ms
T2524 002:812.161 JLINK_GetDLLVersion()
T2524 002:812.171 - 0.013ms returns 70000
T2524 002:812.181 JLINK_GetCompileDateTime()
T2524 002:812.192 - 0.014ms
T2524 002:812.215 JLINK_GetFirmwareString(...)
T2524 002:812.223 - 0.011ms
T2524 002:812.239 JLINK_GetHardwareVersion()
T2524 002:812.247 - 0.011ms returns 10000
T2524 002:812.264 JLINK_GetSN()
T2524 002:812.272 - 0.011ms returns 801015672
T2524 002:812.287 JLINK_GetOEMString(...)
T2524 002:812.348 JLINK_TIF_Select(JLINKARM_TIF_JTAG)
T2524 002:813.370 - 1.037ms returns 0x00
T2524 002:813.399 JLINK_HasError()
T2524 002:813.457 JLINK_SetSpeed(5000)
T2524 002:813.590 - 0.146ms
T2524 002:813.651 JLINK_GetIdData(pIdData)
T2524 002:813.900   InitTarget() start
T2524 002:813.959    J-Link Script File: Executing InitTarget()
T2524 002:821.164   InitTarget() end
T2524 002:822.466   TotalIRLen = 9, IRPrint = 0x0011
T2524 002:822.979   JTAG chain detection found 2 devices:
T2524 002:822.996    #0 Id: 0x4BA00477, IRLen: 04, CoreSight JTAG-DP
T2524 002:823.011    #1 Id: 0x06419041, IRLen: 05, STM32 Boundary Scan
T2524 002:824.336   DPv0 detected
T2524 002:824.355   Scanning AP map to find all available APs
T2524 002:824.945   AP[1]: Stopped AP scan as end of AP map has been reached
T2524 002:824.967   AP[0]: AHB-AP (IDR: 0x24770011)
T2524 002:824.980   Iterating through AP map to find AHB-AP to use
T2524 002:825.883   AP[0]: Core found
T2524 002:825.901   AP[0]: AHB-AP ROM base: 0xE00FF000
T2524 002:826.350   CPUID register: 0x410FC241. Implementer code: 0x41 (ARM)
T2524 002:826.366   Found Cortex-M4 r0p1, Little endian.
T2524 002:826.822   -- Max. mem block: 0x000013C8
T2524 002:826.991   CPU_ReadMem(4 bytes @ 0xE000EDF0)
T2524 002:828.813   CPU_ReadMem(4 bytes @ 0xE0002000)
T2524 002:829.378   FPUnit: 6 code (BP) slots and 2 literal slots
T2524 002:829.397   CPU_ReadMem(4 bytes @ 0xE000EDFC)
T2524 002:830.026   CPU_WriteMem(4 bytes @ 0xE000EDFC)
T2524 002:830.537   CPU_ReadMem(4 bytes @ 0xE0001000)
T2524 002:831.170   CPU_WriteMem(4 bytes @ 0xE0001000)
T2524 002:831.630   CPU_ReadMem(4 bytes @ 0xE000ED88)
T2524 002:832.191   CPU_WriteMem(4 bytes @ 0xE000ED88)
T2524 002:832.638   CPU_ReadMem(4 bytes @ 0xE000ED88)
T2524 002:833.140   CPU_WriteMem(4 bytes @ 0xE000ED88)
T2524 002:833.567   CoreSight components:
T2524 002:833.599   ROMTbl[0] @ E00FF000
T2524 002:833.611   CPU_ReadMem(64 bytes @ 0xE00FF000)
T2524 002:834.652   CPU_ReadMem(32 bytes @ 0xE000EFE0)
T2524 002:835.532   ROMTbl[0][0]: E000E000, CID: B105E00D, PID: 000BB00C SCS-M7
T2524 002:835.548   CPU_ReadMem(32 bytes @ 0xE0001FE0)
T2524 002:836.268   ROMTbl[0][1]: E0001000, CID: B105E00D, PID: 003BB002 DWT
T2524 002:836.305   CPU_ReadMem(32 bytes @ 0xE0002FE0)
T2524 002:837.087   ROMTbl[0][2]: E0002000, CID: B105E00D, PID: 002BB003 FPB
T2524 002:837.124   CPU_ReadMem(32 bytes @ 0xE0000FE0)
T2524 002:837.872   ROMTbl[0][3]: E0000000, CID: B105E00D, PID: 003BB001 ITM
T2524 002:837.910   CPU_ReadMem(32 bytes @ 0xE0040FE0)
T2524 002:838.604   ROMTbl[0][4]: E0040000, CID: B105900D, PID: 000BB9A1 TPIU
T2524 002:838.640   CPU_ReadMem(32 bytes @ 0xE0041FE0)
T2524 002:839.414   ROMTbl[0][5]: E0041000, CID: B105900D, PID: 000BB925 ETM
T2524 002:839.524   pIdData->ScanLen=9
T2524 002:839.549   
T2524 002:839.564   pIdData->NumDevices=2
T2524 002:839.585   
T2524 002:839.600   pIdData->aId[0]=0x4BA00477
T2524 002:839.621   
T2524 002:839.635   pIdData->aIrRead[0]=0
T2524 002:839.656   
T2524 002:839.671   pIdData->aScanLen[0]=0
T2524 002:839.691   
T2524 002:839.706   pIdData->aScanRead[0]=0
T2524 002:839.727   
T2524 002:839.741 - 26.097ms
T2524 002:839.794 JLINK_JTAG_GetDeviceID(DeviceIndex = 0)
T2524 002:839.811 - 0.024ms returns 1268778103
T2524 002:839.946 JLINK_JTAG_GetDeviceInfo(DeviceIndex = 0)
T2524 002:839.973 - 0.035ms returns 0
T2524 002:839.995 JLINK_JTAG_GetDeviceID(DeviceIndex = 1)
T2524 002:840.010 - 0.023ms returns 104960065
T2524 002:840.031 JLINK_JTAG_GetDeviceInfo(DeviceIndex = 1)
T2524 002:840.046 - 0.023ms returns 0
T2524 002:840.068 JLINK_GetDLLVersion()
T2524 002:840.083 - 0.022ms returns 70000
T2524 002:840.103 JLINK_CORE_GetFound()
T2524 002:840.119 - 0.022ms returns 0xE0000FF
T2524 002:840.139 JLINK_GetDebugInfo(0x100 = JLINKARM_ROM_TABLE_ADDR_INDEX)
T2524 002:840.157   Value=0xE00FF000
T2524 002:840.179 - 0.047ms returns 0
T2524 002:840.221 JLINK_GetDebugInfo(0x100 = JLINKARM_ROM_TABLE_ADDR_INDEX)
T2524 002:840.238   Value=0xE00FF000
T2524 002:840.260 - 0.047ms returns 0
T2524 002:840.280 JLINK_GetDebugInfo(0x101 = JLINKARM_DEBUG_INFO_ETM_ADDR_INDEX)
T2524 002:840.296   Value=0xE0041000
T2524 002:840.317 - 0.045ms returns 0
T2524 002:840.337 JLINK_ReadMemEx(0xE0041FD0, 0x20 Bytes, Flags = 0x02000004)
T2524 002:840.410   CPU_ReadMem(32 bytes @ 0xE0041FD0)
T2524 002:841.181   Data:  04 00 00 00 00 00 00 00 00 00 00 00 00 00 00 00 ...
T2524 002:841.214 - 0.885ms returns 32 (0x20)
T2524 002:841.240 JLINK_GetDebugInfo(0x102 = JLINKARM_DEBUG_INFO_MTB_ADDR_INDEX)
T2524 002:841.257   Value=0x00000000
T2524 002:841.279 - 0.045ms returns 0
T2524 002:841.298 JLINK_GetDebugInfo(0x103 = JLINKARM_DEBUG_INFO_TPIU_ADDR_INDEX)
T2524 002:841.313   Value=0xE0040000
T2524 002:841.334 - 0.043ms returns 0
T2524 002:841.353 JLINK_GetDebugInfo(0x104 = JLINKARM_DEBUG_INFO_ITM_ADDR_INDEX)
T2524 002:841.368   Value=0xE0000000
T2524 002:841.389 - 0.043ms returns 0
T2524 002:841.408 JLINK_GetDebugInfo(0x105 = JLINKARM_DEBUG_INFO_DWT_ADDR_INDEX)
T2524 002:841.423   Value=0xE0001000
T2524 002:841.444 - 0.046ms returns 0
T2524 002:841.467 JLINK_GetDebugInfo(0x106 = JLINKARM_DEBUG_INFO_FPB_ADDR_INDEX)
T2524 002:841.482   Value=0xE0002000
T2524 002:841.503 - 0.048ms returns 0
T2524 002:841.531 JLINK_GetDebugInfo(0x107 = JLINKARM_DEBUG_INFO_NVIC_ADDR_INDEX)
T2524 002:841.547   Value=0xE000E000
T2524 002:841.568 - 0.043ms returns 0
T2524 002:841.586 JLINK_GetDebugInfo(0x10C = JLINKARM_DEBUG_INFO_DBG_ADDR_INDEX)
T2524 002:841.602   Value=0xE000EDF0
T2524 002:841.623 - 0.043ms returns 0
T2524 002:841.642 JLINK_GetDebugInfo(0x01 = Unknown)
T2524 002:841.657   Value=0x00000001
T2524 002:841.678 - 0.043ms returns 0
T2524 002:841.697 JLINK_ReadMemU32(0xE000ED00, 0x1 Items)
T2524 002:841.723   CPU_ReadMem(4 bytes @ 0xE000ED00)
T2524 002:842.270   Data:  41 C2 0F 41
T2524 002:842.304   Debug reg: CPUID
T2524 002:842.326 - 0.637ms returns 1 (0x1)
T2524 002:842.351 JLINK_GetDebugInfo(0x10F = JLINKARM_DEBUG_INFO_HAS_CORTEX_M_SECURITY_EXT_INDEX)
T2524 002:842.369   Value=0x00000000
T2524 002:842.391 - 0.047ms returns 0
T2524 002:842.411 JLINK_HasError()
T2524 002:842.432 JLINK_SetResetType(JLINKARM_CM3_RESET_TYPE_NORMAL)
T2524 002:842.454 - 0.029ms returns JLINKARM_CM3_RESET_TYPE_NORMAL
T2524 002:842.474 JLINK_Reset()
T2524 002:842.520   CPU is running
T2524 002:842.547   CPU_WriteMem(4 bytes @ 0xE000EDF0)
T2524 002:843.058   CPU is running
T2524 002:843.129   CPU_WriteMem(4 bytes @ 0xE000EDFC)
T2524 002:843.654   Reset: Halt core after reset via DEMCR.VC_CORERESET.
T2524 002:843.730   Reset: Reset device via AIRCR.SYSRESETREQ.
T2524 002:843.756   CPU is running
T2524 002:843.780   CPU_WriteMem(4 bytes @ 0xE000ED0C)
T2524 002:896.300   CPU_ReadMem(4 bytes @ 0xE000EDF0)
T2524 002:897.476   CPU_ReadMem(4 bytes @ 0xE000EDF0)
T2524 002:898.256   CPU is running
T2524 002:898.334   CPU_WriteMem(4 bytes @ 0xE000EDF0)
T2524 002:899.066   CPU is running
T2524 002:899.152   CPU_WriteMem(4 bytes @ 0xE000EDFC)
T2524 002:905.883   CPU_ReadMem(4 bytes @ 0xE000EDF0)
T2524 002:910.326   CPU_WriteMem(4 bytes @ 0xE000EDFC)
T2524 002:911.069   CPU_WriteMem(4 bytes @ 0xE0001028)
T2524 002:911.734   CPU_WriteMem(4 bytes @ 0xE0001038)
T2524 002:912.475   CPU_WriteMem(4 bytes @ 0xE0001048)
T2524 002:913.260   CPU_WriteMem(4 bytes @ 0xE0001058)
T2524 002:914.085   CPU_WriteMem(4 bytes @ 0xE0002000)
T2524 002:914.760   CPU_ReadMem(4 bytes @ 0xE000EDFC)
T2524 002:915.503   CPU_ReadMem(4 bytes @ 0xE0001000)
T2524 002:916.323 - 73.881ms
T2524 002:916.399 JLINK_HasError()
T2524 002:916.436 JLINK_ReadReg(R15 (PC))
T2524 002:916.496 - 0.074ms returns 0x08000008
T2524 002:916.538 JLINK_ReadReg(XPSR)
T2524 002:916.567 - 0.041ms returns 0x01000000
T2524 002:916.866 JLINK_Halt()
T2524 002:916.934 - 0.086ms returns 0x00
T2524 002:917.005 JLINK_ReadMemU32(0xE000EDF0, 0x1 Items)
T2524 002:917.083   CPU_ReadMem(4 bytes @ 0xE000EDF0)
T2524 002:917.823   Data:  03 00 03 00
T2524 002:917.893   Debug reg: DHCSR
T2524 002:917.931 - 0.939ms returns 1 (0x1)
T2524 002:917.977 JLINK_WriteU32_64(0xE000EDF0, 0xA05F0003)
T2524 002:918.007   Debug reg: DHCSR
T2524 002:919.695   CPU_WriteMem(4 bytes @ 0xE000EDF0)
T2524 002:920.400 - 2.456ms returns 0 (0x00000000)
T2524 002:920.466 JLINK_WriteU32_64(0xE000EDFC, 0x01000000)
T2524 002:920.497   Debug reg: DEMCR
T2524 002:920.556   CPU_WriteMem(4 bytes @ 0xE000EDFC)
T2524 002:921.216 - 0.782ms returns 0 (0x00000000)
T2524 002:921.393 JLINK_GetHWStatus(...)
T2524 002:921.867 - 0.505ms returns 0
T2524 002:922.003 JLINK_GetNumBPUnits(Type = 0xFFFFFF00)
T2524 002:922.037 - 0.047ms returns 0x06
T2524 002:922.071 JLINK_GetNumBPUnits(Type = 0xF0)
T2524 002:922.098 - 0.039ms returns 0x2000
T2524 002:922.131 JLINK_GetNumWPUnits()
T2524 002:922.156 - 0.038ms returns 4
T2524 002:922.243 JLINK_GetSpeed()
T2524 002:922.271 - 0.040ms returns 4000
T2524 002:922.331 JLINK_ReadMemU32(0xE000E004, 0x1 Items)
T2524 002:922.379   CPU_ReadMem(4 bytes @ 0xE000E004)
T2524 002:923.065   Data:  02 00 00 00
T2524 002:923.126 - 0.808ms returns 1 (0x1)
T2524 002:923.172 JLINK_ReadMemU32(0xE000E004, 0x1 Items)
T2524 002:923.221   CPU_ReadMem(4 bytes @ 0xE000E004)
T2524 002:923.943   Data:  02 00 00 00
T2524 002:924.002 - 0.844ms returns 1 (0x1)
T2524 002:924.056 JLINK_WriteMemEx(0xE0001000, 0x0000001C Bytes, Flags = 0x02000004)
T2524 002:924.095   Data:  01 00 00 00 00 00 00 00 00 00 00 00 00 00 00 00 ...
T2524 002:924.161   CPU_WriteMem(28 bytes @ 0xE0001000)
T2524 002:924.937 - 0.912ms returns 0x1C
T2524 002:925.002 JLINK_HasError()
T2524 002:925.041 JLINK_ReadReg(R15 (PC))
T2524 002:925.078 - 0.051ms returns 0x08000008
T2524 002:925.113 JLINK_ReadReg(XPSR)
T2524 002:925.141 - 0.041ms returns 0x01000000
T2524 002:940.584 JLINK_ReadMemEx(0xE0001004, 0x4 Bytes, Flags = 0x02000000)
T2524 002:940.676   Data:  00 00 00 00
T2524 002:940.735   Debug reg: DWT_CYCCNT
T2524 002:940.772 - 0.200ms returns 4 (0x4)
T2524 003:244.950 JLINK_WriteMemEx(0x20000000, 0x00001000 Bytes, Flags = 0x02000000)
T2524 003:244.977   Data:  30 64 01 20 21 0B 00 20 C5 01 00 20 C7 01 00 20 ...
T2524 003:245.343   CPU_WriteMem(4096 bytes @ 0x20000000)
T2524 003:264.357 - 19.476ms returns 0x1000
T2524 003:265.469 JLINK_WriteMemEx(0x20001000, 0x00000068 Bytes, Flags = 0x02000000)
T2524 003:265.498   Data:  70 47 00 00 00 00 00 00 00 00 01 02 03 04 06 07 ...
T2524 003:265.547   CPU_WriteMem(104 bytes @ 0x20001000)
T2524 003:266.747 - 1.297ms returns 0x68
T2524 003:332.699 JLINK_HasError()
T2524 003:332.776 JLINK_SetResetType(JLINKARM_CM3_RESET_TYPE_NORMAL)
T2524 003:332.804 - 0.041ms returns JLINKARM_CM3_RESET_TYPE_NORMAL
T2524 003:332.838 JLINK_Reset()
T2524 003:332.892   CPU_WriteMem(4 bytes @ 0xE000EDF0)
T2524 003:333.586   CPU_WriteMem(4 bytes @ 0xE000EDFC)
T2524 003:334.305   Reset: Halt core after reset via DEMCR.VC_CORERESET.
T2524 003:334.407   Reset: Reset device via AIRCR.SYSRESETREQ.
T2524 003:334.460   CPU_WriteMem(4 bytes @ 0xE000ED0C)
T2524 003:387.494   CPU_ReadMem(4 bytes @ 0xE000EDF0)
T2524 003:388.339   CPU_ReadMem(4 bytes @ 0xE000EDF0)
T2524 003:389.070   CPU_WriteMem(4 bytes @ 0xE000EDF0)
T2524 003:389.752   CPU_WriteMem(4 bytes @ 0xE000EDFC)
T2524 003:395.618   CPU_ReadMem(4 bytes @ 0xE000EDF0)
T2524 003:400.142   CPU_WriteMem(4 bytes @ 0xE000EDFC)
T2524 003:401.000   CPU_WriteMem(4 bytes @ 0xE0001028)
T2524 003:401.737   CPU_WriteMem(4 bytes @ 0xE0001038)
T2524 003:402.454   CPU_WriteMem(4 bytes @ 0xE0001048)
T2524 003:403.151   CPU_WriteMem(4 bytes @ 0xE0001058)
T2524 003:403.826   CPU_WriteMem(4 bytes @ 0xE0002000)
T2524 003:404.494   CPU_ReadMem(4 bytes @ 0xE000EDFC)
T2524 003:405.210   CPU_ReadMem(4 bytes @ 0xE0001000)
T2524 003:405.992 - 73.206ms
T2524 003:406.303 JLINK_HasError()
T2524 003:406.360 JLINK_ReadReg(R15 (PC))
T2524 003:406.400 - 0.053ms returns 0x08000008
T2524 003:406.435 JLINK_ReadReg(XPSR)
T2524 003:406.462 - 0.039ms returns 0x01000000
T2524 003:406.676 JLINK_ReadMemEx(0x08000008, 0x3C Bytes, Flags = 0x02000000)
T2524 003:406.728   CPU_ReadMem(128 bytes @ 0x08000000)
T2524 003:408.360    -- Updating C cache (128 bytes @ 0x08000000)
T2524 003:408.437    -- Read from C cache (60 bytes @ 0x08000008)
T2524 003:408.481   Data:  FF E7 44 48 01 68 21 F0 22 01 41 F0 22 01 01 60 ...
T2524 003:408.518 - 1.855ms returns 60 (0x3C)
T2524 003:408.566 JLINK_ReadMemEx(0x08000008, 0x2 Bytes, Flags = 0x02000000)
T2524 003:408.602    -- Read from C cache (2 bytes @ 0x08000008)
T2524 003:408.639   Data:  FF E7
T2524 003:408.677 - 0.124ms returns 2 (0x2)
T2524 003:408.966 JLINK_ReadMemEx(0x0800000A, 0x2 Bytes, Flags = 0x02000000)
T2524 003:409.000    -- Read from C cache (2 bytes @ 0x0800000A)
T2524 003:409.036   Data:  44 48
T2524 003:409.072 - 0.119ms returns 2 (0x2)
T2524 003:409.877 JLINK_ReadMemEx(0x0800000A, 0x2 Bytes, Flags = 0x02000000)
T2524 003:409.915    -- Read from C cache (2 bytes @ 0x0800000A)
T2524 003:409.952   Data:  44 48
T2524 003:409.988 - 0.124ms returns 2 (0x2)
T2524 003:410.022 JLINK_ReadMemEx(0x0800000C, 0x3C Bytes, Flags = 0x02000000)
T2524 003:410.050    -- Read from C cache (60 bytes @ 0x0800000C)
T2524 003:410.088   Data:  01 68 21 F0 22 01 41 F0 22 01 01 60 41 48 01 68 ...
T2524 003:410.123 - 0.114ms returns 60 (0x3C)
T2524 003:410.155 JLINK_ReadMemEx(0x0800000C, 0x2 Bytes, Flags = 0x02000000)
T2524 003:410.325    -- Read from C cache (2 bytes @ 0x0800000C)
T2524 003:410.374   Data:  01 68
T2524 003:410.410 - 0.267ms returns 2 (0x2)
T2524 003:410.464 JLINK_ReadMemEx(0x0800000C, 0x3C Bytes, Flags = 0x02000000)
T2524 003:410.494    -- Read from C cache (60 bytes @ 0x0800000C)
T2524 003:410.533   Data:  01 68 21 F0 22 01 41 F0 22 01 01 60 41 48 01 68 ...
T2524 003:410.568 - 0.115ms returns 60 (0x3C)
T2524 003:410.600 JLINK_ReadMemEx(0x0800000C, 0x2 Bytes, Flags = 0x02000000)
T2524 003:410.627    -- Read from C cache (2 bytes @ 0x0800000C)
T2524 003:410.662   Data:  01 68
T2524 003:410.698 - 0.110ms returns 2 (0x2)
T2524 003:410.730 JLINK_ReadMemEx(0x0800000E, 0x2 Bytes, Flags = 0x02000000)
T2524 003:410.757    -- Read from C cache (2 bytes @ 0x0800000E)
T2524 003:410.793   Data:  21 F0
T2524 003:410.828 - 0.110ms returns 2 (0x2)
T2524 003:410.871 JLINK_ReadMemEx(0x0800000E, 0x2 Bytes, Flags = 0x02000000)
T2524 003:410.899    -- Read from C cache (2 bytes @ 0x0800000E)
T2524 003:410.935   Data:  21 F0
T2524 003:410.970 - 0.112ms returns 2 (0x2)
T2524 003:411.002 JLINK_ReadMemEx(0x08000010, 0x3C Bytes, Flags = 0x02000000)
T2524 003:411.030    -- Read from C cache (60 bytes @ 0x08000010)
T2524 003:411.068   Data:  22 01 41 F0 22 01 01 60 41 48 01 68 21 F0 22 01 ...
T2524 003:411.103 - 0.113ms returns 60 (0x3C)
T2524 003:411.135 JLINK_ReadMemEx(0x08000010, 0x2 Bytes, Flags = 0x02000000)
T2524 003:411.161    -- Read from C cache (2 bytes @ 0x08000010)
T2524 003:411.197   Data:  22 01
T2524 003:411.232 - 0.110ms returns 2 (0x2)
T2524 003:411.311 JLINK_ReadMemEx(0x08000012, 0x2 Bytes, Flags = 0x02000000)
T2524 003:411.343    -- Read from C cache (2 bytes @ 0x08000012)
T2524 003:411.384   Data:  41 F0
T2524 003:411.419 - 0.121ms returns 2 (0x2)
T2524 003:411.452 JLINK_ReadMemEx(0x08000014, 0x3C Bytes, Flags = 0x02000000)
T2524 003:411.479    -- Read from C cache (60 bytes @ 0x08000014)
T2524 003:411.518   Data:  22 01 01 60 41 48 01 68 21 F0 22 01 41 F0 22 01 ...
T2524 003:411.553 - 0.112ms returns 60 (0x3C)
T2524 003:411.584 JLINK_ReadMemEx(0x08000014, 0x2 Bytes, Flags = 0x02000000)
T2524 003:411.611    -- Read from C cache (2 bytes @ 0x08000014)
T2524 003:411.647   Data:  22 01
T2524 003:411.682 - 0.110ms returns 2 (0x2)
T2524 003:510.569 JLINK_ReadMemEx(0x40020000, 0x14 Bytes, Flags = 0x02000004)
T2524 003:510.693   CPU_ReadMem(20 bytes @ 0x40020000)
T2524 003:511.599   Data:  00 00 00 A8 00 00 00 A8 00 00 00 A8 00 00 00 A8 ...
T2524 003:511.643 - 1.078ms returns 20 (0x14)
T2524 003:511.671 JLINK_ReadMemEx(0x40020014, 0x4 Bytes, Flags = 0x02000004)
T2524 003:511.707   CPU_ReadMem(4 bytes @ 0x40020014)
T2524 003:512.277   Data:  00 00 00 A8
T2524 003:512.290 - 0.622ms returns 4 (0x4)
T2524 003:512.319 JLINK_ReadMemEx(0x4002001C, 0x8 Bytes, Flags = 0x02000004)
T2524 003:512.330   CPU_ReadMem(8 bytes @ 0x4002001C)
T2524 003:512.935   Data:  00 00 00 A8 00 00 00 A8
T2524 003:512.952 - 0.635ms returns 8 (0x8)
T2524 003:512.964 JLINK_ReadMemEx(0x40020024, 0x4 Bytes, Flags = 0x02000004)
T2524 003:512.976   CPU_ReadMem(4 bytes @ 0x40020024)
T2524 003:513.514   Data:  00 00 00 A8
T2524 003:513.543 - 0.600ms returns 4 (0x4)
T2524 003:575.434 JLINK_ReadMemEx(0x40020400, 0x14 Bytes, Flags = 0x02000004)
T2524 003:575.490   CPU_ReadMem(20 bytes @ 0x40020400)
T2524 003:576.243   Data:  80 02 00 00 80 02 00 00 80 02 00 00 80 02 00 00 ...
T2524 003:576.278 - 0.852ms returns 20 (0x14)
T2524 003:576.309 JLINK_ReadMemEx(0x40020414, 0x4 Bytes, Flags = 0x02000004)
T2524 003:576.337   CPU_ReadMem(4 bytes @ 0x40020414)
T2524 003:576.889   Data:  80 02 00 00
T2524 003:576.928 - 0.627ms returns 4 (0x4)
T2524 003:576.957 JLINK_ReadMemEx(0x4002041C, 0x8 Bytes, Flags = 0x02000004)
T2524 003:576.985   CPU_ReadMem(8 bytes @ 0x4002041C)
T2524 003:577.615   Data:  80 02 00 00 80 02 00 00
T2524 003:577.649 - 0.699ms returns 8 (0x8)
T2524 003:577.677 JLINK_ReadMemEx(0x40020424, 0x4 Bytes, Flags = 0x02000004)
T2524 003:577.705   CPU_ReadMem(4 bytes @ 0x40020424)
T2524 003:578.323   Data:  80 02 00 00
T2524 003:578.357 - 0.688ms returns 4 (0x4)
T2524 005:400.908 JLINK_ReadMemEx(0x08000008, 0x3C Bytes, Flags = 0x02000000)
T2524 005:400.941    -- Read from C cache (60 bytes @ 0x08000008)
T2524 005:400.954   Data:  FF E7 44 48 01 68 21 F0 22 01 41 F0 22 01 01 60 ...
T2524 005:400.964 - 0.059ms returns 60 (0x3C)
T2524 005:400.975 JLINK_ReadMemEx(0x08000008, 0x2 Bytes, Flags = 0x02000000)
T2524 005:400.984    -- Read from C cache (2 bytes @ 0x08000008)
T2524 005:400.994   Data:  FF E7
T2524 005:401.005 - 0.034ms returns 2 (0x2)
T2524 005:401.015 JLINK_ReadMemEx(0x0800000A, 0x2 Bytes, Flags = 0x02000000)
T2524 005:401.023    -- Read from C cache (2 bytes @ 0x0800000A)
T2524 005:401.034   Data:  44 48
T2524 005:401.044 - 0.032ms returns 2 (0x2)
T2524 005:401.068 JLINK_ReadMemEx(0x0800000A, 0x2 Bytes, Flags = 0x02000000)
T2524 005:401.077    -- Read from C cache (2 bytes @ 0x0800000A)
T2524 005:401.087   Data:  44 48
T2524 005:401.098 - 0.033ms returns 2 (0x2)
T2524 005:401.107 JLINK_ReadMemEx(0x0800000C, 0x3C Bytes, Flags = 0x02000000)
T2524 005:401.115    -- Read from C cache (60 bytes @ 0x0800000C)
T2524 005:401.126   Data:  01 68 21 F0 22 01 41 F0 22 01 01 60 41 48 01 68 ...
T2524 005:401.137 - 0.033ms returns 60 (0x3C)
T2524 005:401.146 JLINK_ReadMemEx(0x0800000C, 0x2 Bytes, Flags = 0x02000000)
T2524 005:401.154    -- Read from C cache (2 bytes @ 0x0800000C)
T2524 005:401.164   Data:  01 68
T2524 005:401.175 - 0.032ms returns 2 (0x2)
T2524 005:401.188 JLINK_ReadMemEx(0x0800000C, 0x3C Bytes, Flags = 0x02000000)
T2524 005:401.197    -- Read from C cache (60 bytes @ 0x0800000C)
T2524 005:401.208   Data:  01 68 21 F0 22 01 41 F0 22 01 01 60 41 48 01 68 ...
T2524 005:401.218 - 0.033ms returns 60 (0x3C)
T2524 005:401.227 JLINK_ReadMemEx(0x0800000C, 0x2 Bytes, Flags = 0x02000000)
T2524 005:401.235    -- Read from C cache (2 bytes @ 0x0800000C)
T2524 005:401.246   Data:  01 68
T2524 005:401.256 - 0.032ms returns 2 (0x2)
T2524 005:401.266 JLINK_ReadMemEx(0x0800000E, 0x2 Bytes, Flags = 0x02000000)
T2524 005:401.274    -- Read from C cache (2 bytes @ 0x0800000E)
T2524 005:401.284   Data:  21 F0
T2524 005:401.294 - 0.032ms returns 2 (0x2)
T2524 005:401.306 JLINK_ReadMemEx(0x0800000E, 0x2 Bytes, Flags = 0x02000000)
T2524 005:401.315    -- Read from C cache (2 bytes @ 0x0800000E)
T2524 005:401.325   Data:  21 F0
T2524 005:401.336 - 0.039ms returns 2 (0x2)
T2524 005:401.352 JLINK_ReadMemEx(0x08000010, 0x3C Bytes, Flags = 0x02000000)
T2524 005:401.360    -- Read from C cache (60 bytes @ 0x08000010)
T2524 005:401.372   Data:  22 01 41 F0 22 01 01 60 41 48 01 68 21 F0 22 01 ...
T2524 005:401.382 - 0.033ms returns 60 (0x3C)
T2524 005:401.391 JLINK_ReadMemEx(0x08000010, 0x2 Bytes, Flags = 0x02000000)
T2524 005:401.399    -- Read from C cache (2 bytes @ 0x08000010)
T2524 005:401.409   Data:  22 01
T2524 005:401.420 - 0.032ms returns 2 (0x2)
T2524 005:401.433 JLINK_ReadMemEx(0x08000012, 0x2 Bytes, Flags = 0x02000000)
T2524 005:401.441    -- Read from C cache (2 bytes @ 0x08000012)
T2524 005:401.451   Data:  41 F0
T2524 005:401.462 - 0.032ms returns 2 (0x2)
T2524 005:401.471 JLINK_ReadMemEx(0x08000014, 0x3C Bytes, Flags = 0x02000000)
T2524 005:401.479    -- Read from C cache (60 bytes @ 0x08000014)
T2524 005:401.490   Data:  22 01 01 60 41 48 01 68 21 F0 22 01 41 F0 22 01 ...
T2524 005:401.501 - 0.033ms returns 60 (0x3C)
T2524 005:401.510 JLINK_ReadMemEx(0x08000014, 0x2 Bytes, Flags = 0x02000000)
T2524 005:401.518    -- Read from C cache (2 bytes @ 0x08000014)
T2524 005:401.528   Data:  22 01
T2524 005:401.538 - 0.032ms returns 2 (0x2)
T2524 005:720.366 JLINK_HasError()
T2524 005:720.386 JLINK_ReadReg(R0)
T2524 005:720.953 - 0.584ms returns 0x00000000
T2524 005:720.990 JLINK_ReadReg(R1)
T2524 005:721.019 - 0.037ms returns 0x00000000
T2524 005:721.040 JLINK_ReadReg(R2)
T2524 005:721.057 - 0.024ms returns 0x00000000
T2524 005:721.077 JLINK_ReadReg(R3)
T2524 005:721.093 - 0.024ms returns 0x00000000
T2524 005:721.113 JLINK_ReadReg(R4)
T2524 005:721.136 - 0.045ms returns 0x00000000
T2524 005:721.164 JLINK_ReadReg(R5)
T2524 005:721.171 - 0.010ms returns 0x00000000
T2524 005:721.179 JLINK_ReadReg(R6)
T2524 005:721.186 - 0.009ms returns 0x00000000
T2524 005:721.194 JLINK_ReadReg(R7)
T2524 005:721.204 - 0.013ms returns 0x00000000
T2524 005:721.212 JLINK_ReadReg(R8)
T2524 005:721.230 - 0.021ms returns 0x00000000
T2524 005:721.239 JLINK_ReadReg(R9)
T2524 005:721.246 - 0.009ms returns 0x00000000
T2524 005:721.254 JLINK_ReadReg(R10)
T2524 005:721.260 - 0.010ms returns 0x00000000
T2524 005:721.269 JLINK_ReadReg(R11)
T2524 005:721.276 - 0.009ms returns 0x00000000
T2524 005:721.284 JLINK_ReadReg(R12)
T2524 005:721.290 - 0.009ms returns 0x00000000
T2524 005:721.298 JLINK_ReadReg(R13 (SP))
T2524 005:721.305 - 0.010ms returns 0x20001000
T2524 005:721.313 JLINK_ReadReg(R14)
T2524 005:721.320 - 0.009ms returns 0xFFFFFFFF
T2524 005:721.328 JLINK_ReadReg(R15 (PC))
T2524 005:721.335 - 0.010ms returns 0x08000008
T2524 005:721.343 JLINK_ReadReg(XPSR)
T2524 005:721.349 - 0.009ms returns 0x01000000
T2524 005:721.357 JLINK_ReadReg(MSP)
T2524 005:721.364 - 0.009ms returns 0x20001000
T2524 005:721.372 JLINK_ReadReg(PSP)
T2524 005:721.379 - 0.009ms returns 0x00000000
T2524 005:721.387 JLINK_ReadReg(CFBP)
T2524 005:721.393 - 0.009ms returns 0x00000000
T2524 005:721.401 JLINK_ReadReg(FPSCR)
T2524 005:726.112 - 4.739ms returns 0x00000000
T2524 005:726.162 JLINK_ReadReg(FPS0)
T2524 005:726.186 - 0.032ms returns 0x00000000
T2524 005:726.207 JLINK_ReadReg(FPS1)
T2524 005:726.224 - 0.024ms returns 0x00000000
T2524 005:726.245 JLINK_ReadReg(FPS2)
T2524 005:726.261 - 0.024ms returns 0x00000000
T2524 005:726.281 JLINK_ReadReg(FPS3)
T2524 005:726.298 - 0.024ms returns 0x00000000
T2524 005:726.317 JLINK_ReadReg(FPS4)
T2524 005:726.338 - 0.028ms returns 0x00000000
T2524 005:726.359 JLINK_ReadReg(FPS5)
T2524 005:726.375 - 0.024ms returns 0x00000000
T2524 005:726.395 JLINK_ReadReg(FPS6)
T2524 005:726.411 - 0.023ms returns 0x00000000
T2524 005:726.430 JLINK_ReadReg(FPS7)
T2524 005:726.446 - 0.023ms returns 0x00000000
T2524 005:726.469 JLINK_ReadReg(FPS8)
T2524 005:726.485 - 0.023ms returns 0x00000000
T2524 005:726.504 JLINK_ReadReg(FPS9)
T2524 005:726.520 - 0.023ms returns 0x00000000
T2524 005:726.539 JLINK_ReadReg(FPS10)
T2524 005:726.555 - 0.023ms returns 0x00000000
T2524 005:726.574 JLINK_ReadReg(FPS11)
T2524 005:726.589 - 0.023ms returns 0x00000000
T2524 005:726.609 JLINK_ReadReg(FPS12)
T2524 005:726.624 - 0.023ms returns 0x00000000
T2524 005:726.643 JLINK_ReadReg(FPS13)
T2524 005:726.659 - 0.023ms returns 0x00000000
T2524 005:726.678 JLINK_ReadReg(FPS14)
T2524 005:726.694 - 0.023ms returns 0x00000000
T2524 005:726.713 JLINK_ReadReg(FPS15)
T2524 005:726.729 - 0.023ms returns 0x00000000
T2524 005:726.748 JLINK_ReadReg(FPS16)
T2524 005:726.763 - 0.023ms returns 0x00000000
T2524 005:726.783 JLINK_ReadReg(FPS17)
T2524 005:726.798 - 0.023ms returns 0x00000000
T2524 005:726.817 JLINK_ReadReg(FPS18)
T2524 005:726.833 - 0.023ms returns 0x00000000
T2524 005:726.852 JLINK_ReadReg(FPS19)
T2524 005:726.867 - 0.022ms returns 0x00000000
T2524 005:726.887 JLINK_ReadReg(FPS20)
T2524 005:726.902 - 0.023ms returns 0x00000000
T2524 005:726.921 JLINK_ReadReg(FPS21)
T2524 005:726.937 - 0.023ms returns 0x00000000
T2524 005:726.956 JLINK_ReadReg(FPS22)
T2524 005:726.972 - 0.023ms returns 0x00000000
T2524 005:726.991 JLINK_ReadReg(FPS23)
T2524 005:727.006 - 0.022ms returns 0x00000000
T2524 005:727.026 JLINK_ReadReg(FPS24)
T2524 005:727.041 - 0.023ms returns 0x00000000
T2524 005:727.060 JLINK_ReadReg(FPS25)
T2524 005:727.076 - 0.023ms returns 0x00000000
T2524 005:727.095 JLINK_ReadReg(FPS26)
T2524 005:727.111 - 0.023ms returns 0x00000000
T2524 005:727.130 JLINK_ReadReg(FPS27)
T2524 005:727.145 - 0.023ms returns 0x00000000
T2524 005:727.165 JLINK_ReadReg(FPS28)
T2524 005:727.180 - 0.023ms returns 0x00000000
T2524 005:727.199 JLINK_ReadReg(FPS29)
T2524 005:727.215 - 0.022ms returns 0x00000000
T2524 005:727.234 JLINK_ReadReg(FPS30)
T2524 005:727.255 - 0.033ms returns 0x00000000
T2524 005:727.280 JLINK_ReadReg(FPS31)
T2524 005:727.295 - 0.023ms returns 0x00000000
T2524 006:282.736 JLINK_WriteMemEx(0x20000000, 0x00001000 Bytes, Flags = 0x02000000)
T2524 006:282.762   Data:  30 64 01 20 21 0B 00 20 C5 01 00 20 C7 01 00 20 ...
T2524 006:282.787   CPU_WriteMem(4096 bytes @ 0x20000000)
T2524 006:301.703 - 18.997ms returns 0x1000
T2524 006:302.014 JLINK_WriteMemEx(0x20001000, 0x00000068 Bytes, Flags = 0x02000000)
T2524 006:302.038   Data:  70 47 00 00 00 00 00 00 00 00 01 02 03 04 06 07 ...
T2524 006:302.079   CPU_WriteMem(104 bytes @ 0x20001000)
T2524 006:303.501 - 1.519ms returns 0x68
T2524 006:354.661 JLINK_ReadMemEx(0x20000000, 0x4 Bytes, Flags = 0x02000000)
T2524 006:354.758   CPU_ReadMem(64 bytes @ 0x20000000)
T2524 006:356.045    -- Updating C cache (64 bytes @ 0x20000000)
T2524 006:356.133    -- Read from C cache (4 bytes @ 0x20000000)
T2524 006:356.179   Data:  30 64 01 20
T2524 006:356.222 - 1.577ms returns 4 (0x4)
T2524 006:356.574 JLINK_HasError()
T2524 006:356.623 JLINK_WriteReg(R13 (SP), 0x20016430)
T2524 006:356.667 - 0.058ms returns 0
T2524 006:356.709 JLINK_HasError()
T2524 006:356.764 JLINK_ReadReg(R0)
T2524 006:357.521 - 0.793ms returns 0x00000000
T2524 006:357.595 JLINK_ReadReg(R1)
T2524 006:357.631 - 0.051ms returns 0x00000000
T2524 006:357.670 JLINK_ReadReg(R2)
T2524 006:357.701 - 0.045ms returns 0x00000000
T2524 006:357.739 JLINK_ReadReg(R3)
T2524 006:357.770 - 0.053ms returns 0x00000000
T2524 006:357.816 JLINK_ReadReg(R4)
T2524 006:357.863 - 0.065ms returns 0x00000000
T2524 006:357.905 JLINK_ReadReg(R5)
T2524 006:357.935 - 0.044ms returns 0x00000000
T2524 006:357.972 JLINK_ReadReg(R6)
T2524 006:358.002 - 0.043ms returns 0x00000000
T2524 006:358.038 JLINK_ReadReg(R7)
T2524 006:358.067 - 0.043ms returns 0x00000000
T2524 006:358.103 JLINK_ReadReg(R8)
T2524 006:358.133 - 0.043ms returns 0x00000000
T2524 006:358.176 JLINK_ReadReg(R9)
T2524 006:358.206 - 0.044ms returns 0x00000000
T2524 006:358.242 JLINK_ReadReg(R10)
T2524 006:358.271 - 0.044ms returns 0x00000000
T2524 006:358.309 JLINK_ReadReg(R11)
T2524 006:358.338 - 0.043ms returns 0x00000000
T2524 006:358.374 JLINK_ReadReg(R12)
T2524 006:358.404 - 0.044ms returns 0x00000000
T2524 006:358.440 JLINK_ReadReg(R13 (SP))
T2524 006:358.470 - 0.044ms returns 0x20016430
T2524 006:358.506 JLINK_ReadReg(R14)
T2524 006:358.536 - 0.043ms returns 0xFFFFFFFF
T2524 006:358.572 JLINK_ReadReg(R15 (PC))
T2524 006:358.602 - 0.043ms returns 0x08000008
T2524 006:358.637 JLINK_ReadReg(XPSR)
T2524 006:358.667 - 0.043ms returns 0x01000000
T2524 006:358.703 JLINK_ReadReg(MSP)
T2524 006:358.732 - 0.043ms returns 0x20016430
T2524 006:358.768 JLINK_ReadReg(PSP)
T2524 006:358.803 - 0.048ms returns 0x00000000
T2524 006:358.839 JLINK_ReadReg(CFBP)
T2524 006:358.868 - 0.043ms returns 0x00000000
T2524 006:358.904 JLINK_ReadReg(FPSCR)
T2524 006:358.934 - 0.043ms returns 0x00000000
T2524 006:358.970 JLINK_ReadReg(FPS0)
T2524 006:358.999 - 0.043ms returns 0x00000000
T2524 006:359.035 JLINK_ReadReg(FPS1)
T2524 006:359.065 - 0.043ms returns 0x00000000
T2524 006:359.101 JLINK_ReadReg(FPS2)
T2524 006:359.129 - 0.043ms returns 0x00000000
T2524 006:359.165 JLINK_ReadReg(FPS3)
T2524 006:359.195 - 0.043ms returns 0x00000000
T2524 006:359.230 JLINK_ReadReg(FPS4)
T2524 006:359.259 - 0.043ms returns 0x00000000
T2524 006:359.295 JLINK_ReadReg(FPS5)
T2524 006:359.324 - 0.042ms returns 0x00000000
T2524 006:359.360 JLINK_ReadReg(FPS6)
T2524 006:359.389 - 0.042ms returns 0x00000000
T2524 006:359.425 JLINK_ReadReg(FPS7)
T2524 006:359.454 - 0.043ms returns 0x00000000
T2524 006:359.490 JLINK_ReadReg(FPS8)
T2524 006:359.519 - 0.042ms returns 0x00000000
T2524 006:359.555 JLINK_ReadReg(FPS9)
T2524 006:359.584 - 0.043ms returns 0x00000000
T2524 006:359.620 JLINK_ReadReg(FPS10)
T2524 006:359.649 - 0.042ms returns 0x00000000
T2524 006:359.684 JLINK_ReadReg(FPS11)
T2524 006:359.713 - 0.042ms returns 0x00000000
T2524 006:359.749 JLINK_ReadReg(FPS12)
T2524 006:359.968 - 0.247ms returns 0x00000000
T2524 006:360.022 JLINK_ReadReg(FPS13)
T2524 006:360.052 - 0.044ms returns 0x00000000
T2524 006:360.088 JLINK_ReadReg(FPS14)
T2524 006:360.117 - 0.043ms returns 0x00000000
T2524 006:360.153 JLINK_ReadReg(FPS15)
T2524 006:360.182 - 0.042ms returns 0x00000000
T2524 006:360.218 JLINK_ReadReg(FPS16)
T2524 006:360.247 - 0.043ms returns 0x00000000
T2524 006:360.282 JLINK_ReadReg(FPS17)
T2524 006:360.311 - 0.042ms returns 0x00000000
T2524 006:360.347 JLINK_ReadReg(FPS18)
T2524 006:360.376 - 0.043ms returns 0x00000000
T2524 006:360.412 JLINK_ReadReg(FPS19)
T2524 006:360.440 - 0.042ms returns 0x00000000
T2524 006:360.476 JLINK_ReadReg(FPS20)
T2524 006:360.505 - 0.042ms returns 0x00000000
T2524 006:360.541 JLINK_ReadReg(FPS21)
T2524 006:360.569 - 0.042ms returns 0x00000000
T2524 006:360.606 JLINK_ReadReg(FPS22)
T2524 006:360.635 - 0.043ms returns 0x00000000
T2524 006:360.671 JLINK_ReadReg(FPS23)
T2524 006:360.699 - 0.042ms returns 0x00000000
T2524 006:360.735 JLINK_ReadReg(FPS24)
T2524 006:360.764 - 0.047ms returns 0x00000000
T2524 006:360.805 JLINK_ReadReg(FPS25)
T2524 006:360.835 - 0.046ms returns 0x00000000
T2524 006:360.874 JLINK_ReadReg(FPS26)
T2524 006:360.903 - 0.043ms returns 0x00000000
T2524 006:360.939 JLINK_ReadReg(FPS27)
T2524 006:360.969 - 0.043ms returns 0x00000000
T2524 006:361.004 JLINK_ReadReg(FPS28)
T2524 006:361.033 - 0.042ms returns 0x00000000
T2524 006:361.069 JLINK_ReadReg(FPS29)
T2524 006:361.097 - 0.043ms returns 0x00000000
T2524 006:361.133 JLINK_ReadReg(FPS30)
T2524 006:361.162 - 0.042ms returns 0x00000000
T2524 006:361.198 JLINK_ReadReg(FPS31)
T2524 006:361.227 - 0.042ms returns 0x00000000
T2524 006:361.271 JLINK_ReadMemEx(0x20000004, 0x4 Bytes, Flags = 0x02000000)
T2524 006:361.313    -- Read from C cache (4 bytes @ 0x20000004)
T2524 006:361.357   Data:  21 0B 00 20
T2524 006:361.398 - 0.141ms returns 4 (0x4)
T2524 006:361.439 JLINK_HasError()
T2524 006:361.478 JLINK_WriteReg(R15 (PC), 0x20000B20)
T2524 006:361.510 - 0.046ms returns 0
T2524 006:361.550 JLINK_HasError()
T2524 006:361.586 JLINK_ReadReg(R0)
T2524 006:361.615 - 0.043ms returns 0x00000000
T2524 006:361.652 JLINK_ReadReg(R1)
T2524 006:361.681 - 0.043ms returns 0x00000000
T2524 006:361.717 JLINK_ReadReg(R2)
T2524 006:361.746 - 0.043ms returns 0x00000000
T2524 006:361.785 JLINK_ReadReg(R3)
T2524 006:361.815 - 0.043ms returns 0x00000000
T2524 006:361.851 JLINK_ReadReg(R4)
T2524 006:361.880 - 0.042ms returns 0x00000000
T2524 006:361.915 JLINK_ReadReg(R5)
T2524 006:361.945 - 0.043ms returns 0x00000000
T2524 006:361.981 JLINK_ReadReg(R6)
T2524 006:362.010 - 0.042ms returns 0x00000000
T2524 006:362.045 JLINK_ReadReg(R7)
T2524 006:362.074 - 0.042ms returns 0x00000000
T2524 006:362.110 JLINK_ReadReg(R8)
T2524 006:362.139 - 0.042ms returns 0x00000000
T2524 006:362.175 JLINK_ReadReg(R9)
T2524 006:362.204 - 0.042ms returns 0x00000000
T2524 006:362.240 JLINK_ReadReg(R10)
T2524 006:362.269 - 0.043ms returns 0x00000000
T2524 006:362.304 JLINK_ReadReg(R11)
T2524 006:362.334 - 0.043ms returns 0x00000000
T2524 006:362.369 JLINK_ReadReg(R12)
T2524 006:362.398 - 0.043ms returns 0x00000000
T2524 006:362.434 JLINK_ReadReg(R13 (SP))
T2524 006:362.463 - 0.043ms returns 0x20016430
T2524 006:362.499 JLINK_ReadReg(R14)
T2524 006:362.529 - 0.043ms returns 0xFFFFFFFF
T2524 006:362.564 JLINK_ReadReg(R15 (PC))
T2524 006:362.594 - 0.043ms returns 0x20000B20
T2524 006:362.629 JLINK_ReadReg(XPSR)
T2524 006:362.659 - 0.043ms returns 0x01000000
T2524 006:362.695 JLINK_ReadReg(MSP)
T2524 006:362.724 - 0.043ms returns 0x20016430
T2524 006:362.765 JLINK_ReadReg(PSP)
T2524 006:362.795 - 0.044ms returns 0x00000000
T2524 006:362.831 JLINK_ReadReg(CFBP)
T2524 006:362.861 - 0.043ms returns 0x00000000
T2524 006:362.897 JLINK_ReadReg(FPSCR)
T2524 006:362.926 - 0.043ms returns 0x00000000
T2524 006:362.962 JLINK_ReadReg(FPS0)
T2524 006:362.990 - 0.042ms returns 0x00000000
T2524 006:363.026 JLINK_ReadReg(FPS1)
T2524 006:363.055 - 0.043ms returns 0x00000000
T2524 006:363.096 JLINK_ReadReg(FPS2)
T2524 006:363.130 - 0.047ms returns 0x00000000
T2524 006:363.166 JLINK_ReadReg(FPS3)
T2524 006:363.195 - 0.043ms returns 0x00000000
T2524 006:363.231 JLINK_ReadReg(FPS4)
T2524 006:363.260 - 0.042ms returns 0x00000000
T2524 006:363.295 JLINK_ReadReg(FPS5)
T2524 006:363.324 - 0.043ms returns 0x00000000
T2524 006:363.360 JLINK_ReadReg(FPS6)
T2524 006:363.389 - 0.043ms returns 0x00000000
T2524 006:363.425 JLINK_ReadReg(FPS7)
T2524 006:363.454 - 0.043ms returns 0x00000000
T2524 006:363.490 JLINK_ReadReg(FPS8)
T2524 006:363.519 - 0.043ms returns 0x00000000
T2524 006:363.555 JLINK_ReadReg(FPS9)
T2524 006:363.584 - 0.043ms returns 0x00000000
T2524 006:363.620 JLINK_ReadReg(FPS10)
T2524 006:363.649 - 0.042ms returns 0x00000000
T2524 006:363.684 JLINK_ReadReg(FPS11)
T2524 006:363.713 - 0.043ms returns 0x00000000
T2524 006:363.749 JLINK_ReadReg(FPS12)
T2524 006:363.781 - 0.045ms returns 0x00000000
T2524 006:363.816 JLINK_ReadReg(FPS13)
T2524 006:363.845 - 0.043ms returns 0x00000000
T2524 006:363.882 JLINK_ReadReg(FPS14)
T2524 006:363.911 - 0.043ms returns 0x00000000
T2524 006:363.946 JLINK_ReadReg(FPS15)
T2524 006:363.975 - 0.042ms returns 0x00000000
T2524 006:364.011 JLINK_ReadReg(FPS16)
T2524 006:364.039 - 0.042ms returns 0x00000000
T2524 006:364.075 JLINK_ReadReg(FPS17)
T2524 006:364.104 - 0.043ms returns 0x00000000
T2524 006:364.140 JLINK_ReadReg(FPS18)
T2524 006:364.168 - 0.042ms returns 0x00000000
T2524 006:364.204 JLINK_ReadReg(FPS19)
T2524 006:364.233 - 0.042ms returns 0x00000000
T2524 006:364.268 JLINK_ReadReg(FPS20)
T2524 006:364.297 - 0.042ms returns 0x00000000
T2524 006:364.333 JLINK_ReadReg(FPS21)
T2524 006:364.362 - 0.042ms returns 0x00000000
T2524 006:364.397 JLINK_ReadReg(FPS22)
T2524 006:364.426 - 0.042ms returns 0x00000000
T2524 006:364.462 JLINK_ReadReg(FPS23)
T2524 006:364.490 - 0.042ms returns 0x00000000
T2524 006:364.526 JLINK_ReadReg(FPS24)
T2524 006:364.555 - 0.043ms returns 0x00000000
T2524 006:364.591 JLINK_ReadReg(FPS25)
T2524 006:364.620 - 0.042ms returns 0x00000000
T2524 006:364.656 JLINK_ReadReg(FPS26)
T2524 006:364.684 - 0.061ms returns 0x00000000
T2524 006:364.737 JLINK_ReadReg(FPS27)
T2524 006:364.768 - 0.043ms returns 0x00000000
T2524 006:364.800 JLINK_ReadReg(FPS28)
T2524 006:364.826 - 0.038ms returns 0x00000000
T2524 006:364.858 JLINK_ReadReg(FPS29)
T2524 006:364.884 - 0.037ms returns 0x00000000
T2524 006:364.915 JLINK_ReadReg(FPS30)
T2524 006:364.941 - 0.038ms returns 0x00000000
T2524 006:364.973 JLINK_ReadReg(FPS31)
T2524 006:364.998 - 0.038ms returns 0x00000000
T2524 006:365.033 JLINK_WriteMemEx(0xE000ED08, 0x00000004 Bytes, Flags = 0x02000000)
T2524 006:365.060   Data:  00 00 00 20
T2524 006:365.115   CPU_WriteMem(4 bytes @ 0xE000ED08)
T2524 006:365.731 - 0.730ms returns 0x4
T2524 006:375.471 JLINK_ReadMemEx(0x20010020, 0x4 Bytes, Flags = 0x02000000)
T2524 006:375.557   CPU_ReadMem(64 bytes @ 0x20010000)
T2524 006:376.862    -- Updating C cache (64 bytes @ 0x20010000)
T2524 006:376.939    -- Read from C cache (4 bytes @ 0x20010020)
T2524 006:376.980   Data:  00 00 00 00
T2524 006:377.019 - 1.561ms returns 4 (0x4)
T2524 006:385.505 JLINK_ReadMemEx(0x20010020, 0x4 Bytes, Flags = 0x02000000)
T2524 006:385.580    -- Read from C cache (4 bytes @ 0x20010020)
T2524 006:385.620   Data:  00 00 00 00
T2524 006:385.657 - 0.165ms returns 4 (0x4)
T2524 006:385.749 JLINK_ReadMemEx(0x20010020, 0x4 Bytes, Flags = 0x02000000)
T2524 006:385.786    -- Read from C cache (4 bytes @ 0x20010020)
T2524 006:385.823   Data:  00 00 00 00
T2524 006:385.859 - 0.121ms returns 4 (0x4)
T2524 006:391.849 JLINK_ReadMemEx(0x20010026, 0x2 Bytes, Flags = 0x02000000)
T2524 006:391.908    -- Read from C cache (2 bytes @ 0x20010026)
T2524 006:391.946   Data:  00 00
T2524 006:391.983 - 0.146ms returns 2 (0x2)
T2524 006:393.354 JLINK_ReadMemEx(0x20010026, 0x2 Bytes, Flags = 0x02000000)
T2524 006:393.383    -- Read from C cache (2 bytes @ 0x20010026)
T2524 006:393.408   Data:  00 00
T2524 006:393.433 - 0.095ms returns 2 (0x2)
T2524 006:393.496 JLINK_ReadMemEx(0x20010026, 0x2 Bytes, Flags = 0x02000000)
T2524 006:393.520    -- Read from C cache (2 bytes @ 0x20010026)
T2524 006:393.545   Data:  00 00
T2524 006:393.570 - 0.081ms returns 2 (0x2)
T2524 006:399.205 JLINK_ReadMemEx(0x20010012, 0x1 Bytes, Flags = 0x02000000)
T2524 006:399.244    -- Read from C cache (1 bytes @ 0x20010012)
T2524 006:399.264   Data:  08
T2524 006:399.284 - 0.085ms returns 1 (0x1)
T2524 006:400.120 JLINK_ReadMemEx(0x20010012, 0x1 Bytes, Flags = 0x02000000)
T2524 006:400.144    -- Read from C cache (1 bytes @ 0x20010012)
T2524 006:400.163   Data:  08
T2524 006:400.182 - 0.068ms returns 1 (0x1)
T2524 006:400.223 JLINK_ReadMemEx(0x20010012, 0x1 Bytes, Flags = 0x02000000)
T2524 006:400.241    -- Read from C cache (1 bytes @ 0x20010012)
T2524 006:400.260   Data:  08
T2524 006:400.279 - 0.062ms returns 1 (0x1)
T2524 006:403.660 JLINK_ReadMemEx(0x2001000E, 0x1 Bytes, Flags = 0x02000000)
T2524 006:403.688    -- Read from C cache (1 bytes @ 0x2001000E)
T2524 006:403.705   Data:  00
T2524 006:403.721 - 0.067ms returns 1 (0x1)
T2524 006:404.367 JLINK_ReadMemEx(0x2001000E, 0x1 Bytes, Flags = 0x02000000)
T2524 006:404.385    -- Read from C cache (1 bytes @ 0x2001000E)
T2524 006:404.400   Data:  00
T2524 006:404.416 - 0.054ms returns 1 (0x1)
T2524 006:404.450 JLINK_ReadMemEx(0x2001000E, 0x1 Bytes, Flags = 0x02000000)
T2524 006:404.465    -- Read from C cache (1 bytes @ 0x2001000E)
T2524 006:404.481   Data:  00
T2524 006:404.496 - 0.051ms returns 1 (0x1)
T2524 006:407.769 JLINK_HasError()
T2524 006:407.794 JLINK_ReadMemU32(0xE0001004, 0x1 Items)
T2524 006:407.816   Data:  00 00 00 00
T2524 006:407.833   Debug reg: DWT_CYCCNT
T2524 006:407.862 - 0.072ms returns 1 (0x1)
T2524 006:407.936 JLINK_ReadMemEx(0x20010020, 0x4 Bytes, Flags = 0x02000000)
T2524 006:407.951    -- Read from C cache (4 bytes @ 0x20010020)
T2524 006:407.965   Data:  00 00 00 00
T2524 006:407.978 - 0.045ms returns 4 (0x4)
T2524 006:408.004 JLINK_ReadMemEx(0x20010026, 0x2 Bytes, Flags = 0x02000000)
T2524 006:408.017    -- Read from C cache (2 bytes @ 0x20010026)
T2524 006:408.030   Data:  00 00
T2524 006:408.043 - 0.044ms returns 2 (0x2)
T2524 006:408.060 JLINK_ReadMemEx(0x20010012, 0x1 Bytes, Flags = 0x02000000)
T2524 006:408.072    -- Read from C cache (1 bytes @ 0x20010012)
T2524 006:408.085   Data:  08
T2524 006:408.098 - 0.042ms returns 1 (0x1)
T2524 006:408.114 JLINK_ReadMemEx(0x2001000E, 0x1 Bytes, Flags = 0x02000000)
T2524 006:408.125    -- Read from C cache (1 bytes @ 0x2001000E)
T2524 006:408.138   Data:  00
T2524 006:408.151 - 0.041ms returns 1 (0x1)
T2524 006:408.196 JLINK_ReadMemEx(0x40020400, 0x14 Bytes, Flags = 0x02000004)
T2524 006:408.211   CPU_ReadMem(20 bytes @ 0x40020400)
T2524 006:408.888   Data:  80 02 00 00 80 02 00 00 80 02 00 00 80 02 00 00 ...
T2524 006:408.916 - 0.727ms returns 20 (0x14)
T2524 006:408.940 JLINK_ReadMemEx(0x40020414, 0x4 Bytes, Flags = 0x02000004)
T2524 006:408.975   CPU_ReadMem(4 bytes @ 0x40020414)
T2524 006:409.517   Data:  80 02 00 00
T2524 006:409.538 - 0.602ms returns 4 (0x4)
T2524 006:409.555 JLINK_ReadMemEx(0x4002041C, 0x8 Bytes, Flags = 0x02000004)
T2524 006:409.572   CPU_ReadMem(8 bytes @ 0x4002041C)
T2524 006:410.233   Data:  80 02 00 00 80 02 00 00
T2524 006:410.268 - 0.720ms returns 8 (0x8)
T2524 006:410.298 JLINK_ReadMemEx(0x40020424, 0x4 Bytes, Flags = 0x02000004)
T2524 006:410.338   CPU_ReadMem(4 bytes @ 0x40020424)
T2524 006:411.073   Data:  80 02 00 00
T2524 006:411.109 - 0.816ms returns 4 (0x4)
T2524 006:411.549 JLINK_ReadMemEx(0x40020000, 0x14 Bytes, Flags = 0x02000004)
T2524 006:411.576   CPU_ReadMem(20 bytes @ 0x40020000)
T2524 006:412.470   Data:  00 00 00 A8 00 00 00 A8 00 00 00 A8 00 00 00 A8 ...
T2524 006:412.517 - 0.976ms returns 20 (0x14)
T2524 006:412.563 JLINK_ReadMemEx(0x40020014, 0x4 Bytes, Flags = 0x02000004)
T2524 006:412.585   CPU_ReadMem(4 bytes @ 0x40020014)
T2524 006:413.400   Data:  00 00 00 A8
T2524 006:413.437 - 0.878ms returns 4 (0x4)
T2524 006:413.458 JLINK_ReadMemEx(0x4002001C, 0x8 Bytes, Flags = 0x02000004)
T2524 006:413.488   CPU_ReadMem(8 bytes @ 0x4002001C)
T2524 006:414.164   Data:  00 00 00 A8 00 00 00 A8
T2524 006:414.211 - 0.761ms returns 8 (0x8)
T2524 006:414.247 JLINK_ReadMemEx(0x40020024, 0x4 Bytes, Flags = 0x02000004)
T2524 006:414.292   CPU_ReadMem(4 bytes @ 0x40020024)
T2524 006:414.828   Data:  00 00 00 A8
T2524 006:414.859 - 0.616ms returns 4 (0x4)
T2524 006:415.601 JLINK_ReadMemEx(0x20000B20, 0x3C Bytes, Flags = 0x02000000)
T2524 006:415.657   CPU_ReadMem(128 bytes @ 0x20000B00)
T2524 006:417.266    -- Updating C cache (128 bytes @ 0x20000B00)
T2524 006:417.303    -- Read from C cache (60 bytes @ 0x20000B20)
T2524 006:417.321   Data:  06 48 80 47 06 48 00 47 FE E7 FE E7 FE E7 FE E7 ...
T2524 006:417.336 - 1.741ms returns 60 (0x3C)
T2524 006:417.358 JLINK_ReadMemEx(0x20000B20, 0x2 Bytes, Flags = 0x02000000)
T2524 006:417.377    -- Read from C cache (2 bytes @ 0x20000B20)
T2524 006:417.392   Data:  06 48
T2524 006:417.408 - 0.055ms returns 2 (0x2)
T2524 006:417.424 JLINK_ReadMemEx(0x20000B22, 0x2 Bytes, Flags = 0x02000000)
T2524 006:417.438    -- Read from C cache (2 bytes @ 0x20000B22)
T2524 006:417.453   Data:  80 47
T2524 006:417.472 - 0.053ms returns 2 (0x2)
T2524 006:417.509 JLINK_ReadMemEx(0x20000B22, 0x2 Bytes, Flags = 0x02000000)
T2524 006:417.526    -- Read from C cache (2 bytes @ 0x20000B22)
T2524 006:417.541   Data:  80 47
T2524 006:417.557 - 0.053ms returns 2 (0x2)
T2524 006:417.570 JLINK_ReadMemEx(0x20000B24, 0x3C Bytes, Flags = 0x02000000)
T2524 006:417.597    -- Read from C cache (60 bytes @ 0x20000B24)
T2524 006:417.609   Data:  06 48 00 47 FE E7 FE E7 FE E7 FE E7 FE E7 FE E7 ...
T2524 006:417.620 - 0.053ms returns 60 (0x3C)
T2524 006:417.631 JLINK_ReadMemEx(0x20000B24, 0x2 Bytes, Flags = 0x02000000)
T2524 006:417.640    -- Read from C cache (2 bytes @ 0x20000B24)
T2524 006:417.651   Data:  06 48
T2524 006:417.662 - 0.035ms returns 2 (0x2)
T3AAC 007:180.157 JLINK_ReadMemEx(0x20000B20, 0x2 Bytes, Flags = 0x02000000)
T3AAC 007:180.253    -- Read from C cache (2 bytes @ 0x20000B20)
T3AAC 007:180.299   Data:  06 48
T3AAC 007:180.343 - 0.201ms returns 2 (0x2)
T3AAC 007:180.386 JLINK_HasError()
T3AAC 007:180.441 JLINK_Step()
T3AAC 007:181.306    -- Read from C cache (2 bytes @ 0x20000B20)
T3AAC 007:181.375   CPU_ReadMem(4 bytes @ 0xE000ED18)
T3AAC 007:182.195   CPU_WriteMem(4 bytes @ 0xE000ED18)
T3AAC 007:182.995   CPU_ReadMem(4 bytes @ 0xE000ED18)
T3AAC 007:183.780   CPU_WriteMem(4 bytes @ 0xE000ED18)
T3AAC 007:184.561    -- Read from C cache (4 bytes @ 0x20000B3C)
T3AAC 007:184.635   -- Simulated
T3AAC 007:184.677 - 4.251ms returns 0
T3AAC 007:184.726 JLINK_HasError()
T3AAC 007:184.766 JLINK_ReadReg(R15 (PC))
T3AAC 007:184.812 - 0.061ms returns 0x20000B22
T3AAC 007:184.851 JLINK_ReadReg(XPSR)
T3AAC 007:184.882 - 0.045ms returns 0x01000000
T3AAC 007:186.856 JLINK_HasError()
T3AAC 007:186.926 JLINK_ReadReg(R0)
T3AAC 007:186.969 - 0.058ms returns 0x20000EDB
T3AAC 007:187.008 JLINK_ReadReg(R1)
T3AAC 007:187.041 - 0.047ms returns 0x00000000
T3AAC 007:187.079 JLINK_ReadReg(R2)
T3AAC 007:187.109 - 0.044ms returns 0x00000000
T3AAC 007:187.147 JLINK_ReadReg(R3)
T3AAC 007:187.177 - 0.044ms returns 0x00000000
T3AAC 007:187.214 JLINK_ReadReg(R4)
T3AAC 007:187.244 - 0.044ms returns 0x00000000
T3AAC 007:187.296 JLINK_ReadReg(R5)
T3AAC 007:187.305 - 0.013ms returns 0x00000000
T3AAC 007:187.316 JLINK_ReadReg(R6)
T3AAC 007:187.325 - 0.013ms returns 0x00000000
T3AAC 007:187.336 JLINK_ReadReg(R7)
T3AAC 007:187.344 - 0.012ms returns 0x00000000
T3AAC 007:187.355 JLINK_ReadReg(R8)
T3AAC 007:187.364 - 0.013ms returns 0x00000000
T3AAC 007:187.375 JLINK_ReadReg(R9)
T3AAC 007:187.383 - 0.013ms returns 0x00000000
T3AAC 007:187.394 JLINK_ReadReg(R10)
T3AAC 007:187.403 - 0.012ms returns 0x00000000
T3AAC 007:187.414 JLINK_ReadReg(R11)
T3AAC 007:187.422 - 0.012ms returns 0x00000000
T3AAC 007:187.433 JLINK_ReadReg(R12)
T3AAC 007:187.444 - 0.014ms returns 0x00000000
T3AAC 007:187.454 JLINK_ReadReg(R13 (SP))
T3AAC 007:187.471 - 0.021ms returns 0x20016430
T3AAC 007:187.482 JLINK_ReadReg(R14)
T3AAC 007:187.491 - 0.013ms returns 0xFFFFFFFF
T3AAC 007:187.502 JLINK_ReadReg(R15 (PC))
T3AAC 007:187.510 - 0.013ms returns 0x20000B22
T3AAC 007:187.521 JLINK_ReadReg(XPSR)
T3AAC 007:187.530 - 0.012ms returns 0x01000000
T3AAC 007:187.541 JLINK_ReadReg(MSP)
T3AAC 007:187.549 - 0.012ms returns 0x20016430
T3AAC 007:187.560 JLINK_ReadReg(PSP)
T3AAC 007:187.569 - 0.012ms returns 0x00000000
T3AAC 007:187.580 JLINK_ReadReg(CFBP)
T3AAC 007:187.588 - 0.012ms returns 0x00000000
T3AAC 007:187.599 JLINK_ReadReg(FPSCR)
T3AAC 007:187.608 - 0.013ms returns 0x00000000
T3AAC 007:187.619 JLINK_ReadReg(FPS0)
T3AAC 007:187.628 - 0.013ms returns 0x00000000
T3AAC 007:187.639 JLINK_ReadReg(FPS1)
T3AAC 007:187.647 - 0.013ms returns 0x00000000
T3AAC 007:187.658 JLINK_ReadReg(FPS2)
T3AAC 007:187.667 - 0.013ms returns 0x00000000
T3AAC 007:187.678 JLINK_ReadReg(FPS3)
T3AAC 007:187.686 - 0.012ms returns 0x00000000
T3AAC 007:187.697 JLINK_ReadReg(FPS4)
T3AAC 007:187.706 - 0.012ms returns 0x00000000
T3AAC 007:187.716 JLINK_ReadReg(FPS5)
T3AAC 007:187.725 - 0.012ms returns 0x00000000
T3AAC 007:187.736 JLINK_ReadReg(FPS6)
T3AAC 007:187.745 - 0.012ms returns 0x00000000
T3AAC 007:187.755 JLINK_ReadReg(FPS7)
T3AAC 007:187.764 - 0.012ms returns 0x00000000
T3AAC 007:187.775 JLINK_ReadReg(FPS8)
T3AAC 007:187.783 - 0.012ms returns 0x00000000
T3AAC 007:187.794 JLINK_ReadReg(FPS9)
T3AAC 007:187.803 - 0.012ms returns 0x00000000
T3AAC 007:187.814 JLINK_ReadReg(FPS10)
T3AAC 007:187.822 - 0.012ms returns 0x00000000
T3AAC 007:187.833 JLINK_ReadReg(FPS11)
T3AAC 007:187.841 - 0.012ms returns 0x00000000
T3AAC 007:187.852 JLINK_ReadReg(FPS12)
T3AAC 007:187.861 - 0.013ms returns 0x00000000
